"Time / s","Vm1:Measured voltage","Vm2:Measured voltage"
0,0,0
2.9326533856125362e-18,0,0
6.6466218031798222e-06,0,0
6.6466218031826648e-06,0.024316874712254719,-0.024316874712254719
5.0797897641421122e-05,0.17148346268524184,-0.17148346268524184
5.0797897641423968e-05,0,-0.17148346268525055
9.2556134265825332e-05,0,-0.2901599853733875
9.2556134265828178e-05,0,0
9.9999999999997159e-05,0,0
0.0001,0,0
0.00010756812985741642,0,0
0.00010756812985742211,0,-0.32855019889213
0.0001476810634197849,0,-0.42118070031699184
0.00014768106341979059,0.42118070031700405,-0.42118070031700405
0.00019474885142101327,0.51367777264649961,-0.51367777264649961
0.00019474885142101896,0,0
0.00019999999999999432,0,0
0.00020000000000000001,0,0
0.00020517830436806437,0,0
0.00020517830436807288,0.53210512964452505,-0.53210512964452505
0.00025398536061262611,0.60935563764293665,-0.60935563764293665
0.00025398536061263467,0,-0.60935563764294898
0.0002908395746104381,0,-0.65909031240581617
0.00029083957461044667,0,0
0.00029999999999999152,0,0
0.00030000000000000003,0,0
0.00030932866973881236,0,0
0.00030932866973882374,0,-0.68165397337809841
0.00034459763990729884,0,-0.72052268487687687
0.00034459763990731023,0.72052268487688864,-0.72052268487688864
0.00039606919531512186,0.76885778621457346,-0.76885778621457346
0.00039606919531513324,0,0
0.00039999999999998864,0,0
0.00040000000000000002,0,0
0.00040388323913684911,0,0
0.00040388323913686332,0.7754514022967065,-0.7754514022967065
0.00045715633366993767,0.81546979913791084,-0.81546979913791084
0.00045715633366995187,0,-0.8154697991379205
0.00048896613789860797,0,-0.83585584028245197
0.00048896613789862228,0,0
0.00049999999999998581,0,0
0.00050000000000000001,0,0
0.00051125419613676378,0,0
0.00051125419613678091,0,-0.84886160324167703
0.00054153456981652099,0,-0.8647747846686884
0.00054153456981653812,0.86477478466869684,-0.86477478466869684
0.00059720435850684861,0.88975138967299028,-0.88975138967299028
0.00059720435850686574,0,0
0.00059999999999998303,0,0
0.00060000000000000006,0,0
0.00060276690597640644,0,0
0.00060276690597642639,0.89199950334828226,-0.89199950334828226
0.00066029770659421208,0.91249463428964794,-0.91249463428964794
0.00066029770659423203,0,-0.91249463428965427
0.00068694336694065329,0,-0.92060303333599092
0.00068694336694067324,0,0
0.00069999999999998004,0,0
0.00069999999999999999,0,0
0.00071333727478629732,0,0
0.00071333727478632009,0,-0.92799727568384482
0.00073850340597046151,0,-0.93429480870767212
0.00073850340597048428,0.93429480870767756,-0.93429480870767756
0.00079815030676733253,0.94706980885612202,-0.94706980885612202
0.0007981503067673553,0,0
0.00079999999999997727,0,0
0.00080000000000000004,0,0
0.00080183413194682832,0,0
0.00080183413194685391,0.94778707472071122,-0.94778707472071122
0.00086339650866964037,0.95817331725420674,-0.95817331725420674
0.00086339650866966596,0,-0.95817331725421051
0.00088477932501773791,0,-0.96126059982946099
0.0008847793250177635,0,0
0.0008999999999999745,0,0
0.00090000000000000008,0,0
0.00091556977510776538,0,0
0.00091556977510779379,0,-0.96543584380667413
0.0009355155976654996,0,-0.96780543091834714
0.00093551559766552801,0.96780543091835036,-0.96780543091835036
0.00099890379708122176,0.97427109607744022,-0.97427109607744022
0.00099890379708125038,0,0
0.00099999999999997161,0,0
0.001,0,0
0.0010010890660785451,0,0
0.0010010890660785763,0.97447849504675155,-0.97447849504675155
0.0010664399694162124,0.97968490890387316,-0.97968490890387316
0.0010664399694162436,0,-0.97968490890387527
0.0010824825632197018,0,-0.98078141545022746
0.0010824825632197331,0,0
0.0010999999999999688,0,0
0.0011000000000000001,0,0
0.0011179429003836245,0,0
0.0011179429003836587,0,-0.98314678240721831
0.0011325824531704814,0,-0.98396703753790948
0.0011325824531705157,0.98396703753791137,-0.98396703753791137
0.0011994623822891087,0.98719644045087795,-0.98719644045087795
0.0011994623822891429,0,0
0.0011999999999999661,0,0
0.0012000000000000001,0,0
0.0012005351560460829,0,0
0.0012005351560461198,0.98724721111592817,-0.98724721111592817
0.0012694155779567049,0.98982196416398527,-0.98982196416398527
0.0012694155779567418,0,-0.98982196416398649
0.0012800620868970781,0,-0.99016445341874626
0.0012800620868971149,0,0
0.0012999999999999633,0,0
0.0013000000000000002,0,0
0.0013204472218338098,0,0
0.0013204472218338497,0,-0.9915308805245644
0.0013297151023653638,0,-0.99177204088240467
0.0013297151023654037,0.99177204088240567,-0.99177204088240567
0.0013998244120924199,0.99335101521366631,-0.99335101521366631
0.0013998244120924661,0,0
0.0013999999999999601,0,0
0.0014,0,0
0.0014001751269245985,0,0
0.0014001751269246566,0.9933596462661326,-0.9933596462661326
0.0014723111406257658,0.99460578585341153,-0.99460578585341153
0.0014723111406258083,0,-0.99460578585341219
0.0014775273213444729,0,-0.99468362243073094
0.0014775273213445154,0,0
0.0014999999999999573,0,0
0.0015,0,0
0.001523072716481352,0,0
0.0015230727164813975,0,-0.99550887478758976
0.0015269244595643621,0,-0.99555368767891084
0.0015269244595644076,0.99555368767891139,-0.99555368767891139
0.0015999890305649098,0.9962930081174467,-0.9962930081174467
0.0015999890305649553,0,0
0.0015999999999999545,0,0
0.0016000000000000001,0,0
0.0016000109622203919,0,0
0.0016000109622204392,0.99629330921806669,-0.99629330921806669
0.001666666666666618,0.99681350397341861,-0.99681350397341861
0.0016666666666666653,0.99681350397341895,-0.99681350397341895
0.0016748880768227379,0.99686920801416778,-0.99686920801416778
0.001674888076822786,0.99686920801416812,0
0.0016751148364513632,0.99687072048048675,0
0.0016751148364514113,0,0
0.0016999999999999518,0,0
0.0017000000000000001,0,0
0.0017242211865735899,0,0
0.001724221186573641,0.99739110948650633,0
0.0017258088086620461,0.99739860823320303,0
0.0017258088086620973,0.99739860823320325,-0.99739860823320325
0.0017999561703305404,0.99770389801971027,-0.99770389801971027
0.0017999561703305916,0,0
0.001799999999999949,0,0
0.0018000000000000002,0,0
0.0018000438873680667,0,0
0.0018000438873681209,0.99770464385141444,-0.99770464385141444
0.0018721545130155868,0.99793080785952248,-0.99793080785952248
0.001872154513015641,0.9979308078595226,0
0.001877815270163959,0.99794613212912342,0
0.0018778152701640132,0,0
0.001899999999999946,0,0
0.0019,0,0
0.0019216156560396974,0,0
0.0019216156560397542,0.99825370033198457,0
0.0019286444149936026,0.99826437183301142,0
0.0019286444149936594,0.99826437183301153,-0.99826437183301153
0.0019997265435809796,0.99835800826427856,-0.99835800826427856
0.0019997265435810403,0,0
0.0019999999999999432,0,0
0.002,0,0
0.0020002743558892098,0,0
0.0020002743558892853,0.99836133638147129,-0.99836133638147129
0.0020693371030080219,0.99843072976144653,-0.99843072976144653
0.0020693371030080818,0.99843072976144664,0
0.0020804015224192627,0.99844028662417494,0
0.0020804015224193226,0,0
0.0020999999999999405,0,0
0.0021000000000000003,0,0
0.0021191179151524553,0,0
0.0021191179151525178,0.99864864703064926,0
0.002131567992581654,0.99864954025284425,0
0.0021315679925817165,0.99864954025284425,-0.99864954025284425
0.0021993016301148287,0.99865373897148824,-0.99865373897148824
0.0021993016301148911,0,0
0.0021999999999999377,0,0
0.0022000000000000001,0,0
0.0022007020384034476,0,0
0.0022007020384035127,0.99866070354792336,-0.99866070354792336
0.0022664465968635565,0.99866237797506563,-0.99866237797506563
0.0022664465968636215,0.99866237797506563,0
0.0022828631969522188,0.9986627361631607,0
0.0022828631969522839,0,0
0.0022999999999999345,0,0
0.0023,0,0
0.0023167376497739136,0,0
0.0023167376497739822,0.99882041432554969,0
0.0023345675902041859,0.9988106901171816,0
0.0023345675902042545,0.99881069011718149,-0.99881069011718149
0.0023986836625874202,0.99878058664466873,-0.99878058664466873
0.0023986836625874888,0,0
0.0023999999999999321,0,0
0.0024000000000000002,0,0
0.0024013258146793125,0,0
0.0024013258146793836,0.99879246133710742,-0.99879246133710742
0.0024634939848689366,0.99876692419291258,-0.99876692419291258
0.0024634939848690077,0.99876692419291246,0
0.0024851904644157862,0.99875931031105558,0
0.0024851904644158573,0,0
0.0024999999999999289,0,0
0.0025000000000000001,0,0
0.0025144841490732229,0,0
0.0025144841490732967,0.9988868752377551,0
0.0025376309021816219,0.99886890631578706,0
0.0025376309021816956,0.99886890631578706,-0.99886890631578706
0.0025978756091642858,0.9988287681793786,-0.9988287681793786
0.0025978756091643595,0,0
0.0025999999999999266,0,0
0.0026000000000000003,0,0
0.0026021437689052579,0,0
0.0026021437689053343,0.9988471374771476,-0.9988471374771476
0.0026604904605080615,0.99881236718063782,-0.99881236718063782
0.0026604904605081379,0.99881236718063782,0
0.0026873741026947539,0.99879870973400342,0
0.0026873741026948303,0,0
0.0026999999999999234,0,0
0.0027000000000000001,0,0
0.0027123662707578757,0,0
0.0027123662707579555,0.99890491527137115,0
0.0027407453246067652,0.9988812916136377,0
0.002740745324606845,0.9988812916136377,-0.9988812916136377
0.0027968811537725049,0.99884128753045698,-0.99884128753045698
0.0027968811537725847,0,0
0.0027999999999999202,0,0
0.0028,0,0
0.0028031531883479593,0,0
0.0028031531883480417,0.99886789399570808,-0.99886789399570808
0.0028574473832178805,0.99883151748238053,-0.99883151748238053
0.0028574473832179629,0.99883151748238053,0
0.0028894055335219222,0.99881329100959715,0
0.0028894055335220046,0,0
0.0028999999999999178,0,0
0.0029000000000000002,0,0
0.0029103924070011987,0,0
0.0029103924070012837,0.9989020397859818,0
0.002943898013582353,0.99887474346856719,0
0.002943898013582438,0.99887474346856719,-0.99887474346856719
0.0029957046741415326,0.998838681502769,-0.998838681502769
0.0029957046741416176,0,0
0.0029999999999999146,0,0
0.0030000000000000001,0,0
0.0030043505655549608,0,0
0.0030043505655550492,0.9988752800833548,-0.9988752800833548
0.0030543762409761597,0.99884025492744344,-0.99884025492744344
0.0030543762409762482,0.99884025492744333,0
0.0030912768552645619,0.99881828006529449,0
0.0030912768552646503,0,0
0.0030999999999999123,0,0
0.0031000000000000003,0,0
0.0031085704511758833,0,0
0.0031085704511759744,0.99889159712477937,0
0.0031470759450876028,0.99886190026707355,0
0.0031470759450876939,0.99886190026707355,-0.99886190026707355
0.0031943512178247055,0.99883078880868092,-0.99883078880868092
0.0031943512178247966,0,0
0.0031999999999999091,0,0
0.0032000000000000002,0,0
0.0032057316042384894,0,0
0.0032057316042385831,0.99887904665647131,-0.99887904665647131
0.0032512886127629972,0.998846307109308,-0.998846307109308
0.0032512886127630909,0.998846307109308,0
0.0032929808717838973,0.9988208260320518,0
0.003292980871783991,0,0
0.0032999999999999063,0,0
0.0033,0,0
0.003306907765514986,0,0
0.0033069077655150823,0.99888010742828626,0
0.0033502659760757687,0.99884866668146155,0
0.0033502659760759018,0.99884866668146144,-0.99884866668146144
0.0033928264763843376,0.99882235118468987,-0.99882235118468987
0.0033928264763844339,0,0
0.0033999999999999035,0,0
0.0034000000000000002,0,0
0.0034072912289579947,0,0
0.0034072912289580945,0.99888378174330517,-0.99888378174330517
0.0034481961309362685,0.99885347106262512,-0.99885347106262512
0.0034481961309363682,0.99885347106262501,0
0.0034945111173106656,0.99882426913640965,0
0.0034945111173107653,0,0
0.0034999999999999008,0,0
0.0035000000000000001,0,0
0.0035054111498321818,0,0
0.0035054111498322841,0.99887078887003233,0
0.0035534549063889298,0.99883776425108739,0
0.0035534549063890321,0.99883776425108728,-0.99883776425108728
0.0035911367579188249,0.99881568072890226,-0.99881568072890226
0.0035911367579189273,0,0
0.003599999999999898,0,0
0.0036000000000000003,0,0
0.0036090235986972223,0,0
0.0036090235986973272,0.99889159717137577,-0.99889159717137577
0.00364511044355776,0.99886364343422429,-0.99886364343422429
0.0036451104435578649,0.99886364343422429,0
0.0036958618773141952,0.99883015339374392,0
0.0036958618773143001,0,0
0.0036999999999998952,0,0
0.0037000000000000002,0,0
0.0037040868114429503,0,0
0.0037040868114430587,0.99886525291111228,0
0.0037566295410661529,0.99883040673708201,0
0.0037566295410662613,0.9988304067370819,-0.9988304067370819
0.003789288958101504,0.99881193074555641,-0.99881193074555641
0.0037892889581016124,0,0
0.003799999999999892,0,0
0.0038,0,0
0.0038109221244012718,0,0
0.0038109221244013829,0.9989034093422039,-0.9989034093422039
0.0038420431767044018,0.9988777962709976,-0.9988777962709976
0.0038420431767045128,0.99887779627099749,0
0.0038970282053762896,0.9988391762452119,0
0.0038970282053764006,0,0
0.0038999999999998892,0,0
0.0039000000000000003,0,0
0.0039029403364398128,0,0
0.0039029403364399264,0.99886431835184131,0
0.0039597767526154621,0.99882709115052426,0
0.0039597767526155766,0.99882709115052415,-0.99882709115052415
0.0039872905298912777,0.99881170132543995,-0.99881170132543995
0.0039872905298913922,0,0
0.0039999999999998865,0,0
0.0040000000000000001,0,0
0.0040129794905133754,0,0
0.0040129794905134917,0.99891955029318524,-0.99891955029318524
0.0040390058968002426,0.9988964453384972,-0.9988964453384972
0.0040390058968003588,0.99889644533849709,0
0.0040980059361130439,0.99885163685784883,0
0.0040980059361131601,0,0
0.0040999999999998841,0,0
0.0041000000000000003,0,0
0.0041019766624842907,0,0
0.0041019766624844104,0.99886840159532664,0
0.0041628835428220209,0.9988279718706673,0
0.0041628835428221406,0.99882797187066719,-0.99882797187066719
0.0041851494520664797,0.99881532772796822,-0.99881532772796822
0.0041851494520665994,0,0
0.0041999999999998809,0,0
0.0042000000000000006,0,0
0.0042151876805172706,0,0
0.004215187680517392,0.9989400600559678,-0.9989400600559678
0.0042360100730033318,0.99891987412954231,-0.99891987412954231
0.0042360100730034532,0.9989198741295422,0
0.0042987916942176163,0.99886764784506321,0
0.0042987916942177377,0,0
0.0042999999999998777,0,0
0.0043,0,0
0.0043012000532851426,0,0
0.0043012000532852675,0.9988777033534918,0
0.0043659371036686174,0.99883303822743352,0
0.0043659371036687423,0.99883303822743341,-0.99883303822743341
0.0043828741967230581,0.99882301736443002,-0.99882301736443002
0.004382874196723183,0,0
0.0043999999999998754,0,0
0.0044000000000000003,0,0
0.0044175380064561598,0,0
0.0044175380064562881,0.99896482751310478,-0.99896482751310478
0.00443306703968611,0.99894824024673667,-0.99894824024673667
0.0044330670396862384,0.99894824024673656,0
0.0044993828997216719,0.99888723524303524,0
0.0044993828997218002,0,0
0.004499999999999873,0,0
0.0045000000000000005,0,0
0.0045006140749432356,0,0
0.0045006140749433658,0.99889229780026512,0
0.0045689248769581765,0.99884219939882279,0
0.0045689248769583066,0.99884219939882268,-0.99884219939882268
0.0045804736958648638,0.99883491441902816,-0.99883491441902816
0.0045804736958649939,0,0
0.004599999999999869,0,0
0.0045999999999999999,0,0
0.0046200211423651156,0,0
0.0046200211423652491,0.99899365931327189,-0.99899365931327189
0.0046301879590473207,0.9989816251796082,-0.9989816251796082
0.0046301879590474543,0.99898162517960809,0
0.004699777769596741,0.99891038563011825,0
0.0046997777695968745,0,0
0.0046999999999998666,0,0
0.0047000000000000002,0,0
0.0047002215743481429,0,0
0.00470022157434828,0.9989121751817196,0
0.0047718346122419654,0.99885532553984735,0
0.0047718346122421025,0.99885532553984724,-0.99885532553984724
0.0047779573072084715,0.99885112981450763,-0.99885112981450763
0.0047779573072086086,0,0
0.0047999999999998643,0,0
0.0048000000000000004,0,0
0.0048226271615134384,0,0
0.0048226271615135772,0.99902631465052483,-0.99902631465052483
0.0048273837839010389,0.99902005689418238,-0.99902005689418238
0.0048273837839011777,0.99902005689418227,0
0.0048999753158375722,0.99893706818224992,0
0.004899975315837711,0,0
0.0048999999999998602,0,0
0.0048999999999999998,0,0
0.0049000246598160128,0,0
0.0049000246598161551,0.99893726242111525,0
0.004974654422680155,0.99887226817386521,0
0.0049746544226802972,0.9988722681738651,-0.9988722681738651
0.0049753347793078054,0.99887175452831023,-0.99887175452831023
0.0049753347793079477,0,0
0.0049999999999998579,0,0
0.0050000000000000001,0,0
0.0050246652206921219,0,0
0.0050246652206922676,0,0.99906015849283103
0.005025345577319722,0,0.99905917135963573
0.005025345577319899,0.99905917135963551,0
0.0050999753401838443,0.99896470285523098,0
0.00509997534018399,0,0
0.0050999999999998555,0,0
0.0051000000000000004,0,0
0.0051000246841622857,0,0
0.0051000246841624332,0.99896489204416983,0
0.0051726162160988928,0.99889492308988248,0
0.0051726162160990402,0,0.99889492308988237
0.0051773728384864196,0,0.99889096285952605
0.005177372838486567,0,0
0.0051999999999998532,0,0
0.0052000000000000006,0,0
0.005222042692791461,0,0
0.0052220426927916119,0,0.99906007370631178
0.0052281653877580348,0,0.99905128113438757
0.0052281653877581857,0.99905128113438735,0
0.0052997784256517974,0.99896198612913811,0
0.0052997784256519484,0,0
0.0052999999999998491,0,0
0.0053,0,0
0.0053002222304031925,0,0
0.0053002222304033451,0.99896369093355186,0
0.0053698120409526031,0.99889653045244464,0
0.0053698120409527558,0,0.99889653045244453
0.0053799788576348083,0,0.99888809047486193
0.005379978857634961,0,0
0.0053999999999998468,0,0
0.0054000000000000003,0,0
0.0054195263041349941,0,0
0.0054195263041351503,0,0.99903958997918973
0.0054310751230417587,0,0.99902402904347254
0.0054310751230419148,0.99902402904347232,0
0.0054993859250566128,0.99894445002449639,0
0.0054993859250568435,0,0
0.0054999999999998444,0,0
0.0055000000000000005,0,0
0.0055006171002782494,0,0
0.005500617100278409,0.99894925228136122,0
0.0055669329603137471,0.99888802614392991,0
0.0055669329603139067,0,0.9988880261439298
0.0055824619935437763,0,0.99887573720509548
0.0055824619935439359,0,0
0.0055999999999998403,0,0
0.0055999999999999999,0,0
0.0056171258032768614,0,0
0.0056171258032770227,0,0.99901119528823812
0.0056340628963313204,0,0.99899032773075591
0.0056340628963314817,0.99899032773075569,0
0.0056987999467147769,0.99892162441055221,0
0.0056987999467149383,0,0
0.005699999999999838,0,0
0.0057000000000000002,0,0
0.0057012083057823232,0,0
0.005701208305782488,0.99893120059669016,0
0.0057639899269965262,0.99887662112106179,0
0.005763989926996691,0,0.99887662112106168
0.0057848123194827296,0,0.99886114999930731
0.0057848123194828944,0,0
0.0057999999999998357,0,0
0.0058000000000000005,0,0
0.0058148505479333774,0,0
0.0058148505479335456,0,0.99898105772706514
0.0058371164571779793,0,0.99895627986591473
0.0058371164571781476,0.99895627986591451,0
0.0058980233375156496,0.99889808264493463,0
0.0058980233375158179,0,0
0.0058999999999998325,0,0
0.0058999999999999999,0,0
0.0059019940638868982,0,0
0.0059019940638870682,0.99891416932965116,0
0.0059609941031996726,0.99886587710507801,0
0.0059609941031998426,0,0.9988658771050779
0.0059870205094865398,0,0.99884771097866054
0.0059870205094867098,0,0
0.0059999999999998293,0,0
0.0060000000000000001,0,0
0.0060127094701087225,0,0
0.006012709470108896,0,0.99895229170720223
0.0060402232473845381,0,0.99892475635832501
0.0060402232473847116,0.99892475635832478,0
0.0060970596635601306,0.99887604318258105,0
0.0060970596635603041,0,0
0.0060999999999998269,0,0
0.0061000000000000004,0,0
0.0061029717946236555,0,0
0.0061029717946238324,0.99890038679521287,0
0.0061579568232954553,0.99885759891908821,0
0.0061579568232956322,0,0.99885759891908799
0.0061890778755987284,0,0.99883697981196473
0.0061890778755989053,0,0
0.0061999999999998246,0,0
0.0062000000000000006,0,0
0.0062107110418983535,0,0
0.0062107110418985322,0,0.99892652966306561
0.0062433704589338473,0,0.99889708808821975
0.006243370458934026,0.99889708808821964,0
